time	V(n002)	V(n004)	V(n005)	V(n009)
0.000000000000000e+000	0.000000e+000	2.990937e+000	7.485674e-010	1.233349e-003
9.765624960978488e-015	9.731368e-011	2.990937e+000	4.763912e-005	1.243242e-003
1.953124992195698e-014	2.595031e-010	2.990937e+000	9.527749e-005	1.259592e-003
3.906249984391395e-014	8.563601e-010	2.990937e+000	1.905542e-004	1.318667e-003
7.812499968782791e-014	3.040380e-009	2.990937e+000	3.811077e-004	1.528115e-003
1.372450470800610e-013	9.192685e-009	2.990937e+000	6.695053e-004	2.082571e-003
2.554851418645273e-013	2.985783e-008	2.990937e+000	1.246301e-003	3.810019e-003
3.855341570026080e-013	6.582196e-008	2.990937e+000	1.880702e-003	6.512792e-003
5.768025652931472e-013	1.437920e-007	2.990937e+000	2.813741e-003	1.170301e-002
7.796638105800852e-013	2.567065e-007	2.990937e+000	3.803333e-003	1.829501e-002
9.854107359087741e-013	4.078024e-007	2.990937e+000	4.807001e-003	2.590778e-002
1.256614699036571e-012	6.673761e-007	2.990937e+000	6.129981e-003	3.689825e-002
1.668254364358587e-012	1.185761e-006	2.990937e+000	8.138029e-003	5.467776e-002
2.260501581582892e-012	2.194035e-006	2.990937e+000	1.102711e-002	8.134854e-002
3.156899926482272e-012	4.331074e-006	2.990937e+000	1.539990e-002	1.226154e-001
4.596553086730674e-012	9.456893e-006	2.990937e+000	2.242277e-002	1.893982e-001
1.043336903056016e-011	4.626298e-005	2.990937e+000	5.089577e-002	4.602540e-001
1.943336903056016e-011	1.559555e-004	2.990939e+000	9.479935e-002	8.761393e-001
2.843336903056015e-011	3.317377e-004	2.990941e+000	1.387030e-001	1.288977e+000
3.743336903056016e-011	5.735945e-004	2.990944e+000	1.826066e-001	1.698186e+000
4.643336903056017e-011	8.815107e-004	2.990947e+000	2.265103e-001	2.103441e+000
5.543336903056018e-011	1.255471e-003	2.990952e+000	2.704141e-001	2.504538e+000
6.443336903056018e-011	1.695461e-003	2.990957e+000	3.143178e-001	2.901320e+000
6.743336903056018e-011	1.856794e-003	2.990958e+000	3.289524e-001	3.032597e+000
7.343336903056019e-011	2.201464e-003	2.990962e+000	3.582216e-001	3.293635e+000
7.722860202619444e-011	2.434917e-003	2.990965e+000	3.767355e-001	3.457717e+000
8.102383502182871e-011	2.679919e-003	2.990968e+000	3.952494e-001	3.620925e+000
8.481906801746297e-011	2.936470e-003	2.990970e+000	4.137634e-001	3.783257e+000
8.861430101309723e-011	3.204570e-003	2.990973e+000	4.322773e-001	3.944714e+000
9.240953400873148e-011	3.484220e-003	2.990976e+000	4.507912e-001	4.105296e+000
9.620476700436575e-011	3.775419e-003	2.990980e+000	4.693052e-001	4.265003e+000
1.000000000000000e-010	4.078167e-003	2.990983e+000	4.878191e-001	4.423835e+000
1.003000000000000e-010	4.102625e-003	2.990983e+000	4.892826e-001	4.430380e+000
1.009000000000000e-010	4.151542e-003	2.990984e+000	4.922095e-001	4.437309e+000
1.021000000000000e-010	4.249372e-003	2.990985e+000	4.980634e-001	4.438363e+000
1.045000000000000e-010	4.445021e-003	2.990987e+000	5.097711e-001	4.429365e+000
1.081104190173354e-010	4.739318e-003	2.990990e+000	5.273835e-001	4.412883e+000
1.153312570520062e-010	5.327807e-003	2.990998e+000	5.626083e-001	4.378108e+000
1.297729331213478e-010	6.504380e-003	2.991014e+000	6.330580e-001	4.304480e+000
1.586562852600310e-010	8.856320e-003	2.991052e+000	7.739577e-001	4.151462e+000
1.886562852600310e-010	1.129758e-002	2.991098e+000	9.203051e-001	3.990210e+000
2.186562852600310e-010	1.373699e-002	2.991152e+000	1.066653e+000	3.829201e+000
2.786562852600310e-010	1.861023e-002	2.991282e+000	1.359349e+000	3.511177e+000
3.086562852600310e-010	2.104405e-002	2.991359e+000	1.505698e+000	3.354259e+000
3.386562852600310e-010	2.347602e-002	2.991443e+000	1.652048e+000	3.199815e+000
3.686562852600310e-010	2.590612e-002	2.991535e+000	1.798397e+000	3.050288e+000
3.986562852600310e-010	2.833437e-002	2.991635e+000	1.944747e+000	2.909102e+000
4.286562852600310e-010	3.076077e-002	2.991742e+000	2.091098e+000	2.779567e+000
4.586562852600310e-010	3.318531e-002	2.991858e+000	2.237449e+000	2.663917e+000
4.886562852600310e-010	3.560800e-002	2.991981e+000	2.383800e+000	2.563018e+000
5.186562852600310e-010	3.802884e-002	2.992111e+000	2.530152e+000	2.476591e+000
5.486562852600310e-010	4.044782e-002	2.992249e+000	2.676503e+000	2.403612e+000
5.786562852600310e-010	4.286496e-002	2.992395e+000	2.822856e+000	2.342666e+000
6.086562852600310e-010	4.528026e-002	2.992549e+000	2.969209e+000	2.292204e+000
6.386562852600310e-010	4.769371e-002	2.992710e+000	3.115562e+000	2.250700e+000
6.686562852600310e-010	5.010531e-002	2.992879e+000	3.261915e+000	2.216741e+000
6.986562852600310e-010	5.251507e-002	2.993056e+000	3.408269e+000	2.189070e+000
7.286562852600310e-010	5.492299e-002	2.993240e+000	3.554624e+000	2.166596e+000
7.586562852600310e-010	5.732907e-002	2.993432e+000	3.700978e+000	2.148391e+000
7.886562852600310e-010	5.973331e-002	2.993631e+000	3.847333e+000	2.133675e+000
8.186562852600310e-010	6.213572e-002	2.993838e+000	3.993689e+000	2.121799e+000
8.486562852600310e-010	6.453629e-002	2.994053e+000	4.140045e+000	2.112228e+000
8.786562852600310e-010	6.693502e-002	2.994275e+000	4.286401e+000	2.104525e+000
9.086562852600310e-010	6.933193e-002	2.994505e+000	4.432758e+000	2.098331e+000
9.386562852600309e-010	7.172699e-002	2.994743e+000	4.579115e+000	2.093356e+000
9.686562852600310e-010	7.412024e-002	2.994988e+000	4.725472e+000	2.089362e+000
9.986562852600311e-010	7.651208e-002	2.995239e+000	4.871830e+000	2.086008e+000
1.000000000000000e-009	7.661918e-002	2.995250e+000	4.878386e+000	2.085877e+000
1.002687429479938e-009	7.683329e-002	2.995273e+000	4.878386e+000	2.085633e+000
1.008062288439814e-009	7.726148e-002	2.995319e+000	4.878389e+000	2.085160e+000
1.018812006359566e-009	7.811764e-002	2.995410e+000	4.878394e+000	2.084278e+000
1.040311442199069e-009	7.982909e-002	2.995593e+000	4.878403e+000	2.082744e+000
1.083310313878076e-009	8.324847e-002	2.995959e+000	4.878421e+000	2.080385e+000
1.169308057236091e-009	9.007321e-002	2.996690e+000	4.878458e+000	2.077469e+000
1.341303543952119e-009	1.036668e-001	2.998146e+000	4.878532e+000	2.074983e+000
1.685294517384177e-009	1.306325e-001	3.001038e+000	4.878679e+000	2.073994e+000
2.373276464248292e-009	1.838239e-001	3.006753e+000	4.878972e+000	2.074533e+000
3.349838964248291e-009	2.579103e-001	3.014736e+000	4.879383e+000	2.075665e+000
4.326401464248291e-009	3.303120e-001	3.022562e+000	4.879790e+000	2.076778e+000
5.302963964248291e-009	4.009343e-001	3.030220e+000	4.880192e+000	2.077895e+000
6.279526464248291e-009	4.698211e-001	3.037713e+000	4.880589e+000	2.079008e+000
7.256088964248290e-009	5.370150e-001	3.045042e+000	4.880982e+000	2.080120e+000
8.232651464248291e-009	6.025575e-001	3.052211e+000	4.881371e+000	2.081231e+000
1.116233896424829e-008	7.896784e-001	3.072773e+000	4.882508e+000	2.084555e+000
1.409202646424829e-008	9.633399e-001	3.091960e+000	4.883605e+000	2.087866e+000
1.702171396424829e-008	1.124510e+000	3.109823e+000	4.884662e+000	2.091165e+000
1.911434789281972e-008	1.231813e+000	3.121759e+000	4.885392e+000	2.093514e+000
2.120698182139116e-008	1.334194e+000	3.133098e+000	4.886103e+000	2.095856e+000
2.329961574996258e-008	1.431654e+000	3.143839e+000	4.886795e+000	2.098192e+000
2.539224967853402e-008	1.524191e+000	3.153984e+000	4.887468e+000	2.100522e+000
2.748488360710545e-008	1.611807e+000	3.163531e+000	4.888122e+000	2.102845e+000
2.957751753567687e-008	1.694501e+000	3.172481e+000	4.888756e+000	2.105163e+000
3.167015146424830e-008	1.772273e+000	3.180834e+000	4.889372e+000	2.107473e+000
3.362327646424829e-008	1.841780e+000	3.188115e+000	4.889934e+000	2.109624e+000
3.459983896424829e-008	1.875258e+000	3.191520e+000	4.890209e+000	2.110698e+000
3.557640146424829e-008	1.907913e+000	3.194731e+000	4.890481e+000	2.111770e+000
3.655296396424829e-008	1.939766e+000	3.197698e+000	4.890750e+000	2.112841e+000
3.752952646424828e-008	1.970835e+000	3.200348e+000	4.891015e+000	2.113911e+000
3.850608896424828e-008	2.001142e+000	3.202574e+000	4.891275e+000	2.114979e+000
3.948265146424828e-008	2.030703e+000	3.204215e+000	4.891531e+000	2.116045e+000
4.045921396424828e-008	2.059538e+000	3.205043e+000	4.891782e+000	2.117111e+000
4.143577646424827e-008	2.087664e+000	3.204736e+000	4.892027e+000	2.118175e+000
4.241233896424827e-008	2.115099e+000	3.202857e+000	4.892263e+000	2.119238e+000
4.338890146424827e-008	2.141860e+000	3.198829e+000	4.892491e+000	2.120299e+000
4.436546396424826e-008	2.167964e+000	3.191933e+000	4.892706e+000	2.121359e+000
4.534202646424826e-008	2.193425e+000	3.181324e+000	4.892908e+000	2.122418e+000
4.631858896424826e-008	2.218261e+000	3.166094e+000	4.893092e+000	2.123476e+000
4.729515146424826e-008	2.242487e+000	3.145371e+000	4.893258e+000	2.124532e+000
4.827171396424825e-008	2.266117e+000	3.118449e+000	4.893403e+000	2.125587e+000
4.924827646424825e-008	2.289167e+000	3.084898e+000	4.893527e+000	2.126640e+000
5.022483896424825e-008	2.311650e+000	3.044644e+000	4.893631e+000	2.127692e+000
5.120140146424825e-008	2.333580e+000	2.997972e+000	4.893716e+000	2.128743e+000
5.217796396424824e-008	2.354972e+000	2.945459e+000	4.893785e+000	2.129792e+000
5.315452646424824e-008	2.375838e+000	2.887883e+000	4.893840e+000	2.130840e+000
5.413108896424824e-008	2.396191e+000	2.826106e+000	4.893884e+000	2.131887e+000
5.510765146424823e-008	2.416044e+000	2.760986e+000	4.893918e+000	2.132933e+000
5.608421396424823e-008	2.435410e+000	2.693314e+000	4.893945e+000	2.133977e+000
5.706077646424823e-008	2.454298e+000	2.623783e+000	4.893966e+000	2.135020e+000
5.803733896424823e-008	2.472723e+000	2.552970e+000	4.893982e+000	2.136061e+000
5.999046396424822e-008	2.508226e+000	2.409286e+000	4.894006e+000	2.138140e+000
6.194358896424822e-008	2.542006e+000	2.264958e+000	4.894022e+000	2.140214e+000
6.389671396424821e-008	2.573969e+000	2.120814e+000	4.894032e+000	2.142283e+000
6.584983896424820e-008	2.604552e+000	1.979513e+000	4.894041e+000	2.144346e+000
6.780296396424820e-008	2.633753e+000	1.841053e+000	4.894049e+000	2.146405e+000
6.975608896424819e-008	2.661572e+000	1.705436e+000	4.894056e+000	2.148458e+000
7.170921396424819e-008	2.688010e+000	1.572661e+000	4.894061e+000	2.150506e+000
7.366233896424818e-008	2.713067e+000	1.442729e+000	4.894065e+000	2.152548e+000
7.561546396424818e-008	2.736742e+000	1.315638e+000	4.894068e+000	2.154586e+000
7.812662467853388e-008	2.765452e+000	1.157140e+000	4.894073e+000	2.157198e+000
8.063778539281959e-008	2.792625e+000	1.005552e+000	4.894076e+000	2.159802e+000
8.314894610710531e-008	2.818262e+000	8.608739e-001	4.894079e+000	2.162398e+000
8.566010682139101e-008	2.842363e+000	7.231061e-001	4.894080e+000	2.164985e+000
8.817126753567672e-008	2.864926e+000	5.922485e-001	4.894081e+000	2.167564e+000
9.068242824996242e-008	2.885954e+000	4.683010e-001	4.894080e+000	2.170134e+000
9.319358896424813e-008	2.905445e+000	3.512636e-001	4.894079e+000	2.172696e+000
9.417015146424813e-008	2.912783e+000	3.085565e-001	4.894077e+000	2.173690e+000
9.514671396424812e-008	2.919940e+000	2.674270e-001	4.894076e+000	2.174683e+000
9.612327646424812e-008	2.926922e+000	2.284804e-001	4.894073e+000	2.175675e+000
9.709983896424812e-008	2.933732e+000	1.932287e-001	4.894067e+000	2.176665e+000
9.807640146424811e-008	2.940375e+000	1.638755e-001	4.894054e+000	2.177654e+000
9.905296396424811e-008	2.946855e+000	1.416686e-001	4.894035e+000	2.178642e+000
1.000295264642481e-007	2.953175e+000	1.258113e-001	4.894015e+000	2.179629e+000
1.010060889642481e-007	2.959340e+000	1.144534e-001	4.893998e+000	2.180614e+000
1.019826514642481e-007	2.965354e+000	1.060054e-001	4.893985e+000	2.181599e+000
1.029592139642481e-007	2.971219e+000	9.944917e-002	4.893976e+000	2.182582e+000
1.039357764642481e-007	2.976941e+000	9.417102e-002	4.893970e+000	2.183563e+000
1.049123389642481e-007	2.982522e+000	8.979296e-002	4.893967e+000	2.184544e+000
1.058889014642481e-007	2.987966e+000	8.607293e-002	4.893965e+000	2.185523e+000
1.068654639642481e-007	2.993276e+000	8.284983e-002	4.893965e+000	2.186501e+000
1.078420264642481e-007	2.998455e+000	8.001271e-002	4.893965e+000	2.187478e+000
1.088185889642481e-007	3.003508e+000	7.748283e-002	4.893967e+000	2.188454e+000
1.097951514642481e-007	3.008436e+000	7.520278e-002	4.893968e+000	2.189428e+000
1.107717139642481e-007	3.013243e+000	7.312963e-002	4.893970e+000	2.190401e+000
1.117482764642481e-007	3.017931e+000	7.123062e-002	4.893972e+000	2.191373e+000
1.127248389642481e-007	3.022505e+000	6.948017e-002	4.893974e+000	2.192344e+000
1.137014014642481e-007	3.026966e+000	6.785800e-002	4.893977e+000	2.193313e+000
1.146779639642481e-007	3.031318e+000	6.634773e-002	4.893980e+000	2.194281e+000
1.156545264642481e-007	3.035563e+000	6.493595e-002	4.893982e+000	2.195249e+000
1.166310889642481e-007	3.039703e+000	6.361154e-002	4.893985e+000	2.196214e+000
1.176076514642481e-007	3.043741e+000	6.236518e-002	4.893987e+000	2.197179e+000
1.185842139642481e-007	3.047681e+000	6.118893e-002	4.893990e+000	2.198142e+000
1.205373389642481e-007	3.055272e+000	5.902065e-002	4.893995e+000	2.200066e+000
1.224904639642481e-007	3.062494e+000	5.706275e-002	4.894001e+000	2.201984e+000
1.244435889642481e-007	3.069365e+000	5.528169e-002	4.894006e+000	2.203897e+000
1.263967139642481e-007	3.075903e+000	5.365125e-002	4.894011e+000	2.205806e+000
1.293264014642480e-007	3.085120e+000	5.144348e-002	4.894020e+000	2.208661e+000
1.322560889642480e-007	3.093673e+000	4.947397e-002	4.894027e+000	2.211504e+000
1.351857764642480e-007	3.101612e+000	4.770179e-002	4.894035e+000	2.214337e+000
1.381154639642480e-007	3.108979e+000	4.609552e-002	4.894043e+000	2.217159e+000
1.404871157499623e-007	3.114510e+000	4.491747e-002	4.894049e+000	2.219436e+000
1.428587675356766e-007	3.119758e+000	4.380243e-002	4.894055e+000	2.221706e+000
1.452304193213908e-007	3.124724e+000	4.275042e-002	4.894061e+000	2.223969e+000
1.476020711071051e-007	3.129408e+000	4.176143e-002	4.894067e+000	2.226225e+000
1.499737228928194e-007	3.133810e+000	4.083546e-002	4.894073e+000	2.228475e+000
1.523453746785337e-007	3.137930e+000	3.997250e-002	4.894078e+000	2.230717e+000
1.547170264642480e-007	3.141767e+000	3.917257e-002	4.894083e+000	2.232953e+000
1.580652407499622e-007	3.146784e+000	3.811260e-002	4.894091e+000	2.236097e+000
1.614134550356765e-007	3.151462e+000	3.711202e-002	4.894099e+000	2.239229e+000
1.647616693213908e-007	3.155801e+000	3.617082e-002	4.894107e+000	2.242347e+000
1.681098836071051e-007	3.159801e+000	3.528900e-002	4.894114e+000	2.245451e+000
1.714580978928194e-007	3.163462e+000	3.446657e-002	4.894121e+000	2.248543e+000
1.748063121785336e-007	3.166784e+000	3.370352e-002	4.894128e+000	2.251621e+000
1.781545264642479e-007	3.169767e+000	3.299985e-002	4.894135e+000	2.254686e+000
1.819212675356765e-007	3.172846e+000	3.224941e-002	4.894142e+000	2.258118e+000
1.856880086071050e-007	3.175697e+000	3.153642e-002	4.894149e+000	2.261534e+000
1.894547496785336e-007	3.178321e+000	3.086088e-002	4.894156e+000	2.264933e+000
1.932214907499622e-007	3.180716e+000	3.022279e-002	4.894163e+000	2.268316e+000
1.969882318213907e-007	3.182883e+000	2.962215e-002	4.894170e+000	2.271683e+000
2.007549728928193e-007	3.184822e+000	2.905896e-002	4.894177e+000	2.275034e+000
2.045217139642478e-007	3.186533e+000	2.853323e-002	4.894183e+000	2.278368e+000
2.084279639642478e-007	3.188160e+000	2.801296e-002	4.894190e+000	2.281809e+000
2.123342139642478e-007	3.189662e+000	2.751518e-002	4.894196e+000	2.285233e+000
2.162404639642478e-007	3.191041e+000	2.703986e-002	4.894202e+000	2.288641e+000
2.201467139642478e-007	3.192296e+000	2.658702e-002	4.894209e+000	2.292031e+000
2.240529639642478e-007	3.193427e+000	2.615665e-002	4.894215e+000	2.295404e+000
2.279592139642478e-007	3.194434e+000	2.574875e-002	4.894220e+000	2.298761e+000
2.318654639642478e-007	3.195317e+000	2.536333e-002	4.894226e+000	2.302100e+000
2.360507318213907e-007	3.196180e+000	2.496797e-002	4.894232e+000	2.305660e+000
2.402359996785336e-007	3.196974e+000	2.458826e-002	4.894238e+000	2.309201e+000
2.444212675356766e-007	3.197698e+000	2.422422e-002	4.894244e+000	2.312723e+000
2.486065353928195e-007	3.198354e+000	2.387584e-002	4.894249e+000	2.316227e+000
2.527918032499625e-007	3.198940e+000	2.354312e-002	4.894255e+000	2.319712e+000
2.569770711071053e-007	3.199457e+000	2.322607e-002	4.894260e+000	2.323178e+000
2.611623389642483e-007	3.199904e+000	2.292467e-002	4.894265e+000	2.326625e+000
2.659056425356770e-007	3.200362e+000	2.259733e-002	4.894271e+000	2.330510e+000
2.706489461071057e-007	3.200780e+000	2.228268e-002	4.894277e+000	2.334372e+000
2.753922496785344e-007	3.201158e+000	2.198073e-002	4.894282e+000	2.338211e+000
2.801355532499631e-007	3.201495e+000	2.169148e-002	4.894288e+000	2.342027e+000
2.848788568213917e-007	3.201792e+000	2.141493e-002	4.894293e+000	2.345820e+000
2.896221603928204e-007	3.202048e+000	2.115107e-002	4.894298e+000	2.349590e+000
2.943654639642491e-007	3.202265e+000	2.089991e-002	4.894303e+000	2.353337e+000
3.002248389642492e-007	3.202501e+000	2.060335e-002	4.894309e+000	2.357935e+000
3.060842139642494e-007	3.202714e+000	2.031900e-002	4.894315e+000	2.362499e+000
3.119435889642495e-007	3.202902e+000	2.004686e-002	4.894321e+000	2.367029e+000
3.178029639642497e-007	3.203067e+000	1.978694e-002	4.894327e+000	2.371526e+000
3.236623389642498e-007	3.203207e+000	1.953923e-002	4.894332e+000	2.375990e+000
3.295217139642499e-007	3.203323e+000	1.930373e-002	4.894337e+000	2.380420e+000
3.353810889642501e-007	3.203415e+000	1.908044e-002	4.894342e+000	2.384817e+000
3.437516246785360e-007	3.203527e+000	1.877841e-002	4.894349e+000	2.391041e+000
3.521221603928219e-007	3.203624e+000	1.849121e-002	4.894356e+000	2.397201e+000
3.604926961071079e-007	3.203708e+000	1.821885e-002	4.894363e+000	2.403297e+000
3.688632318213938e-007	3.203777e+000	1.796132e-002	4.894369e+000	2.409329e+000
3.772337675356797e-007	3.203832e+000	1.771863e-002	4.894375e+000	2.415298e+000
3.856043032499656e-007	3.203872e+000	1.749078e-002	4.894381e+000	2.421202e+000
3.939748389642515e-007	3.203899e+000	1.727775e-002	4.894386e+000	2.427043e+000
4.098788568213947e-007	3.203938e+000	1.690647e-002	4.894396e+000	2.437964e+000
4.257828746785380e-007	3.203970e+000	1.656155e-002	4.894406e+000	2.448679e+000
4.416868925356813e-007	3.203996e+000	1.624301e-002	4.894414e+000	2.459188e+000
4.575909103928245e-007	3.204015e+000	1.595084e-002	4.894423e+000	2.469490e+000
4.734949282499677e-007	3.204027e+000	1.568503e-002	4.894431e+000	2.479587e+000
4.893989461071109e-007	3.204032e+000	1.544560e-002	4.894438e+000	2.489477e+000
5.053029639642542e-007	3.204031e+000	1.523254e-002	4.894444e+000	2.499161e+000
5.449234996785408e-007	3.204034e+000	1.478551e-002	4.894459e+000	2.522356e+000
5.845440353928276e-007	3.204037e+000	1.438920e-002	4.894472e+000	2.544556e+000
6.241645711071142e-007	3.204038e+000	1.404360e-002	4.894484e+000	2.565758e+000
6.637851068214010e-007	3.204040e+000	1.374872e-002	4.894494e+000	2.585965e+000
7.034056425356876e-007	3.204040e+000	1.350456e-002	4.894502e+000	2.605174e+000
7.430261782499743e-007	3.204040e+000	1.331111e-002	4.894509e+000	2.623388e+000
7.826467139642609e-007	3.204039e+000	1.316838e-002	4.894515e+000	2.640604e+000
8.007828746785470e-007	3.204039e+000	1.310126e-002	4.894517e+000	2.648253e+000
8.189190353928333e-007	3.204039e+000	1.303800e-002	4.894520e+000	2.655741e+000
8.370551961071194e-007	3.204039e+000	1.297860e-002	4.894522e+000	2.663068e+000
8.551913568214055e-007	3.204039e+000	1.292305e-002	4.894524e+000	2.670234e+000
8.733275175356917e-007	3.204039e+000	1.287136e-002	4.894526e+000	2.677240e+000
8.914636782499779e-007	3.204039e+000	1.282353e-002	4.894528e+000	2.684085e+000
9.095998389642640e-007	3.204039e+000	1.277955e-002	4.894530e+000	2.690770e+000
9.105764014642640e-007	3.204039e+000	1.277723e-002	4.894530e+000	2.691126e+000
9.994435889642613e-007	3.204039e+000	1.259753e-002	4.894537e+000	2.721807e+000
1.000000000000000e-006	3.204039e+000	1.259658e-002	4.894537e+000	2.721989e+000
