time	V(n002)	V(n004)	V(n005)	V(n009)
0.000000000000000e+000	3.204039e+000	1.210834e-002	4.894557e+000	2.990937e+000
9.765624960978488e-015	3.204039e+000	1.210834e-002	4.894509e+000	2.990927e+000
1.953124992195698e-014	3.204039e+000	1.210834e-002	4.894462e+000	2.990910e+000
3.906249984391395e-014	3.204039e+000	1.210834e-002	4.894366e+000	2.990851e+000
7.812499968782791e-014	3.204039e+000	1.210834e-002	4.894176e+000	2.990630e+000
1.562499993756558e-013	3.204039e+000	1.210834e-002	4.893795e+000	2.989817e+000
3.124999987513116e-013	3.204039e+000	1.210834e-002	4.893033e+000	2.987030e+000
6.249999975026233e-013	3.204039e+000	1.210833e-002	4.891508e+000	2.978467e+000
1.249999995005247e-012	3.204038e+000	1.210831e-002	4.888459e+000	2.955729e+000
2.373723603507940e-012	3.204036e+000	1.210825e-002	4.882977e+000	2.908727e+000
3.645845472214415e-012	3.204033e+000	1.210815e-002	4.876772e+000	2.853080e+000
5.643331609273347e-012	3.204025e+000	1.210796e-002	4.867028e+000	2.765218e+000
8.330139301919204e-012	3.204010e+000	1.210765e-002	4.853921e+000	2.647520e+000
1.070172870622655e-011	3.203991e+000	1.210732e-002	4.842352e+000	2.544188e+000
1.549644763553792e-011	3.203940e+000	1.210655e-002	4.818963e+000	2.337400e+000
2.149644763553792e-011	3.203849e+000	1.210537e-002	4.789694e+000	2.082916e+000
3.049644763553792e-011	3.203658e+000	1.210318e-002	4.745790e+000	1.710337e+000
3.606787620696650e-011	3.203506e+000	1.210156e-002	4.718612e+000	1.485936e+000
4.163930477839507e-011	3.203330e+000	1.209974e-002	4.691433e+000	1.264414e+000
4.721073334982365e-011	3.203128e+000	1.209773e-002	4.664255e+000	1.045772e+000
5.278216192125223e-011	3.202900e+000	1.209553e-002	4.637077e+000	8.300094e-001
5.835359049268081e-011	3.202648e+000	1.209313e-002	4.609898e+000	6.171260e-001
6.392501906410939e-011	3.202370e+000	1.209054e-002	4.582720e+000	4.071221e-001
6.949644763553795e-011	3.202067e+000	1.208776e-002	4.555541e+000	1.999976e-001
7.549644763553796e-011	3.201712e+000	1.208455e-002	4.526272e+000	-2.231372e-002
8.449644763553796e-011	3.201125e+000	1.207932e-002	4.482368e+000	-3.533765e-001
1.000000000000000e-010	3.199961e+000	1.206920e-002	4.406739e+000	-9.207175e-001
1.003000000000000e-010	3.199936e+000	1.206899e-002	4.405276e+000	-9.257690e-001
1.009000000000000e-010	3.199888e+000	1.206856e-002	4.402349e+000	-9.298062e-001
1.021000000000000e-010	3.199790e+000	1.206771e-002	4.396495e+000	-9.255773e-001
1.037594654711743e-010	3.199654e+000	1.206652e-002	4.388400e+000	-9.124345e-001
1.056103611041713e-010	3.199503e+000	1.206516e-002	4.379371e+000	-8.964357e-001
1.093121523701651e-010	3.199202e+000	1.206238e-002	4.361313e+000	-8.649384e-001
1.167157349021529e-010	3.198598e+000	1.205650e-002	4.325197e+000	-8.043355e-001
1.315228999661285e-010	3.197392e+000	1.204389e-002	4.252964e+000	-6.915290e-001
1.461841922611238e-010	3.196198e+000	1.203011e-002	4.181444e+000	-5.923010e-001
1.701764166159836e-010	3.194245e+000	1.200476e-002	4.064405e+000	-4.540578e-001
2.001764166159836e-010	3.191804e+000	1.196899e-002	3.918059e+000	-3.086013e-001
2.301764166159836e-010	3.189366e+000	1.192861e-002	3.771713e+000	-1.867906e-001
2.601764166159836e-010	3.186929e+000	1.188353e-002	3.625367e+000	-8.342674e-002
2.901764166159836e-010	3.184494e+000	1.183385e-002	3.479021e+000	5.848877e-003
3.201764166159836e-010	3.182061e+000	1.177972e-002	3.332675e+000	8.380234e-002
3.501764166159836e-010	3.179630e+000	1.172126e-002	3.186328e+000	1.523024e-001
3.801764166159836e-010	3.177200e+000	1.165857e-002	3.039982e+000	2.126064e-001
4.101764166159836e-010	3.174773e+000	1.159177e-002	2.893635e+000	2.655125e-001
4.401764166159836e-010	3.172347e+000	1.152097e-002	2.747288e+000	3.115312e-001
4.701764166159836e-010	3.169923e+000	1.144626e-002	2.600941e+000	3.510669e-001
5.001764166159836e-010	3.167501e+000	1.136776e-002	2.454594e+000	3.845250e-001
5.301764166159836e-010	3.165081e+000	1.128555e-002	2.308247e+000	4.123399e-001
5.601764166159836e-010	3.162663e+000	1.119972e-002	2.161900e+000	4.349762e-001
5.901764166159836e-010	3.160246e+000	1.111036e-002	2.015553e+000	4.529219e-001
6.201764166159836e-010	3.157832e+000	1.101755e-002	1.869206e+000	4.666637e-001
6.501764166159836e-010	3.155419e+000	1.092137e-002	1.722858e+000	4.766597e-001
6.801764166159836e-010	3.153008e+000	1.082190e-002	1.576511e+000	4.833266e-001
7.101764166159836e-010	3.150599e+000	1.071921e-002	1.430163e+000	4.870393e-001
7.401764166159836e-010	3.148192e+000	1.061337e-002	1.283816e+000	4.881352e-001
7.701764166159836e-010	3.145787e+000	1.050445e-002	1.137468e+000	4.869170e-001
8.001764166159836e-010	3.143383e+000	1.039251e-002	9.911201e-001	4.836576e-001
8.301764166159836e-010	3.140981e+000	1.027761e-002	8.447722e-001	4.786034e-001
8.601764166159836e-010	3.138582e+000	1.015981e-002	6.984243e-001	4.719779e-001
8.901764166159836e-010	3.136184e+000	1.003917e-002	5.520763e-001	4.639851e-001
9.201764166159836e-010	3.133787e+000	9.915736e-003	4.057283e-001	4.548111e-001
9.501764166159837e-010	3.131393e+000	9.789560e-003	2.593801e-001	4.446270e-001
1.000000000000000e-009	3.127420e+000	9.574736e-003	1.632703e-002	4.260502e-001
1.003000000000000e-009	3.127181e+000	9.561732e-003	1.632671e-002	4.248522e-001
1.009000000000000e-009	3.126703e+000	9.535916e-003	1.632607e-002	4.224396e-001
1.045000000000000e-009	3.123837e+000	9.384979e-003	1.632234e-002	4.074662e-001
1.093000000000000e-009	3.120021e+000	9.192899e-003	1.631754e-002	3.866239e-001
1.189000000000000e-009	3.112406e+000	8.837473e-003	1.630852e-002	3.443469e-001
1.381000000000000e-009	3.097228e+000	8.205358e-003	1.629258e-002	2.636524e-001
1.586976900058563e-009	3.081023e+000	7.628570e-003	1.627817e-002	1.896933e-001
1.841276534652035e-009	3.061129e+000	7.043300e-003	1.626354e-002	1.206217e-001
2.076071361038799e-009	3.042863e+000	6.598732e-003	1.625258e-002	7.606908e-002
2.253468555314511e-009	3.029136e+000	6.321199e-003	1.624562e-002	5.353681e-002
2.432482968980391e-009	3.015354e+000	6.086534e-003	1.623956e-002	3.818845e-002
2.633892541155613e-009	2.999922e+000	5.862779e-003	1.623371e-002	2.624667e-002
2.828496391307093e-009	2.985085e+000	5.680433e-003	1.622890e-002	1.835687e-002
3.028360749886943e-009	2.969923e+000	5.523245e-003	1.622466e-002	1.288195e-002
3.224243816443272e-009	2.955138e+000	5.394027e-003	1.622110e-002	9.241193e-003
3.430669695618527e-009	2.939638e+000	5.280201e-003	1.621788e-002	6.647678e-003
3.638057458168934e-009	2.924148e+000	5.185021e-003	1.621510e-002	4.891843e-003
3.857117770433359e-009	2.907874e+000	5.101947e-003	1.621258e-002	3.656739e-003
4.080041924550558e-009	2.891407e+000	5.032638e-003	1.621038e-002	2.828290e-003
4.318184990618937e-009	2.873920e+000	4.972630e-003	1.620837e-002	2.255858e-003
4.568134269439250e-009	2.855680e+000	4.922298e-003	1.620656e-002	1.875109e-003
4.840950161510117e-009	2.835906e+000	4.879328e-003	1.620486e-002	1.620507e-003
5.142299727453188e-009	2.814226e+000	4.843294e-003	1.620327e-002	1.455469e-003
5.488041907425916e-009	2.789560e+000	4.813286e-003	1.620170e-002	1.351115e-003
5.886913227967655e-009	2.761380e+000	4.789875e-003	1.620017e-002	1.290241e-003
6.377588879247841e-009	2.727118e+000	4.772650e-003	1.619856e-002	1.256780e-003
6.984158249865833e-009	2.685385e+000	4.762962e-003	1.619685e-002	1.241222e-003
7.814178367198418e-009	2.629322e+000	4.761559e-003	1.619480e-002	1.235052e-003
8.790740867198418e-009	2.564766e+000	4.768883e-003	1.619262e-002	1.233531e-003
9.767303367198419e-009	2.501737e+000	4.781267e-003	1.619055e-002	1.233358e-003
1.074386586719842e-008	2.440256e+000	4.796059e-003	1.618853e-002	1.233349e-003
1.269699086719842e-008	2.321790e+000	4.828182e-003	1.618454e-002	1.233349e-003
1.618471408148414e-008	2.127493e+000	4.887798e-003	1.617744e-002	1.233349e-003
1.967243729576985e-008	1.946753e+000	4.948247e-003	1.617035e-002	1.233349e-003
2.316016051005556e-008	1.779572e+000	5.009530e-003	1.616326e-002	1.233349e-003
2.664788372434128e-008	1.625950e+000	5.071647e-003	1.615618e-002	1.233349e-003
3.013560693862699e-008	1.485885e+000	5.134597e-003	1.614910e-002	1.233349e-003
3.362333015291270e-008	1.359379e+000	5.198382e-003	1.614202e-002	1.233349e-003
3.711105336719841e-008	1.246431e+000	5.263000e-003	1.613495e-002	1.233349e-003
4.059877658148412e-008	1.142124e+000	5.328436e-003	1.612789e-002	1.233349e-003
4.408649979576982e-008	1.045096e+000	5.394772e-003	1.612083e-002	1.233349e-003
4.757422301005553e-008	9.553461e-001	5.462007e-003	1.611377e-002	1.233349e-003
5.106194622434124e-008	8.728752e-001	5.530141e-003	1.610672e-002	1.233349e-003
5.454966943862695e-008	7.976829e-001	5.599175e-003	1.609967e-002	1.233349e-003
5.803739265291265e-008	7.297692e-001	5.669109e-003	1.609263e-002	1.233349e-003
6.152511586719835e-008	6.691340e-001	5.739941e-003	1.608559e-002	1.233349e-003
6.501283908148405e-008	6.131380e-001	5.811717e-003	1.607855e-002	1.233349e-003
6.850056229576976e-008	5.610494e-001	5.884490e-003	1.607152e-002	1.233349e-003
7.198828551005547e-008	5.128683e-001	5.958260e-003	1.606450e-002	1.233349e-003
7.547600872434117e-008	4.685946e-001	6.033027e-003	1.605748e-002	1.233349e-003
7.896373193862688e-008	4.282283e-001	6.108793e-003	1.605046e-002	1.233349e-003
8.245145515291258e-008	3.917695e-001	6.185555e-003	1.604345e-002	1.233349e-003
8.593917836719828e-008	3.592181e-001	6.263315e-003	1.603645e-002	1.233349e-003
8.942690158148399e-008	3.291572e-001	6.342121e-003	1.602945e-002	1.233349e-003
9.291462479576969e-008	3.011939e-001	6.422036e-003	1.602245e-002	1.233349e-003
9.640234801005540e-008	2.753283e-001	6.503059e-003	1.601546e-002	1.233349e-003
9.989007122434111e-008	2.515604e-001	6.585190e-003	1.600847e-002	1.233349e-003
1.033777944386268e-007	2.298902e-001	6.668431e-003	1.600150e-002	1.233349e-003
1.068655176529125e-007	2.103176e-001	6.752780e-003	1.599452e-002	1.233349e-003
1.103532408671982e-007	1.928427e-001	6.838237e-003	1.598755e-002	1.233349e-003
1.138409640814839e-007	1.767048e-001	6.924859e-003	1.598059e-002	1.233349e-003
1.173286872957696e-007	1.616930e-001	7.012716e-003	1.597363e-002	1.233349e-003
1.208164105100553e-007	1.478073e-001	7.101808e-003	1.596668e-002	1.233349e-003
1.243041337243410e-007	1.350478e-001	7.192136e-003	1.595973e-002	1.233349e-003
1.277918569386267e-007	1.234143e-001	7.283699e-003	1.595279e-002	1.233349e-003
1.312795801529125e-007	1.129070e-001	7.376498e-003	1.594585e-002	1.233349e-003
1.347673033671982e-007	1.035257e-001	7.470531e-003	1.593892e-002	1.233349e-003
1.383945355100553e-007	9.454195e-002	7.569700e-003	1.593172e-002	1.233349e-003
1.420217676529124e-007	8.620444e-002	7.670365e-003	1.592453e-002	1.233349e-003
1.456489997957695e-007	7.851320e-002	7.772528e-003	1.591734e-002	1.233349e-003
1.492762319386267e-007	7.146823e-002	7.876187e-003	1.591016e-002	1.233349e-003
1.529034640814838e-007	6.506954e-002	7.981344e-003	1.590299e-002	1.233349e-003
1.565306962243410e-007	5.931712e-002	8.087997e-003	1.589582e-002	1.233349e-003
1.601579283671981e-007	5.421098e-002	8.196147e-003	1.588866e-002	1.233349e-003
1.637851605100552e-007	4.950664e-002	8.305876e-003	1.588150e-002	1.233349e-003
1.674123926529124e-007	4.514072e-002	8.417293e-003	1.587436e-002	1.233349e-003
1.710396247957695e-007	4.111322e-002	8.530396e-003	1.586722e-002	1.233349e-003
1.746668569386266e-007	3.742415e-002	8.645186e-003	1.586008e-002	1.233349e-003
1.782940890814838e-007	3.407349e-002	8.761664e-003	1.585296e-002	1.233349e-003
1.819213212243409e-007	3.106125e-002	8.879828e-003	1.584584e-002	1.233349e-003
1.855485533671980e-007	2.838743e-002	8.999680e-003	1.583872e-002	1.233349e-003
1.893152944386266e-007	2.583680e-002	9.126021e-003	1.583135e-002	1.233349e-003
1.930820355100551e-007	2.347505e-002	9.254427e-003	1.582398e-002	1.233349e-003
1.968487765814837e-007	2.130220e-002	9.384897e-003	1.581662e-002	1.233349e-003
2.006155176529123e-007	1.931824e-002	9.517431e-003	1.580926e-002	1.233349e-003
2.043822587243408e-007	1.752316e-002	9.652031e-003	1.580192e-002	1.233349e-003
2.081489997957694e-007	1.591698e-002	9.788695e-003	1.579458e-002	1.233349e-003
2.119157408671979e-007	1.449969e-002	9.927424e-003	1.578726e-002	1.233349e-003
2.158219908671979e-007	1.315265e-002	1.007359e-002	1.577966e-002	1.233349e-003
2.197282408671979e-007	1.190816e-002	1.022231e-002	1.577208e-002	1.233349e-003
2.236344908671979e-007	1.076623e-002	1.037357e-002	1.576451e-002	1.233349e-003
2.275407408671979e-007	9.726863e-003	1.052738e-002	1.575695e-002	1.233349e-003
2.314469908671979e-007	8.790057e-003	1.068373e-002	1.574940e-002	1.233349e-003
2.353532408671979e-007	7.955811e-003	1.084263e-002	1.574186e-002	1.233349e-003
2.392594908671979e-007	7.224126e-003	1.100408e-002	1.573433e-002	1.233349e-003
2.435842676529123e-007	6.487811e-003	1.118595e-002	1.572600e-002	1.233349e-003
2.479090444386267e-007	5.811993e-003	1.137146e-002	1.571768e-002	1.233349e-003
2.522338212243410e-007	5.196672e-003	1.156061e-002	1.570938e-002	1.233349e-003
2.565585980100555e-007	4.641849e-003	1.175341e-002	1.570109e-002	1.233349e-003
2.608833747957698e-007	4.147522e-003	1.194985e-002	1.569281e-002	1.233349e-003
2.652081515814843e-007	3.713692e-003	1.214993e-002	1.568455e-002	1.233349e-003
2.695329283671986e-007	3.340360e-003	1.235365e-002	1.567630e-002	1.233349e-003
2.744157408671987e-007	2.960736e-003	1.258828e-002	1.566699e-002	1.233349e-003
2.792985533671989e-007	2.615171e-003	1.282850e-002	1.565771e-002	1.233349e-003
2.841813658671990e-007	2.303664e-003	1.307430e-002	1.564845e-002	1.233349e-003
2.890641783671991e-007	2.026216e-003	1.332568e-002	1.563920e-002	1.233349e-003
2.939469908671992e-007	1.782827e-003	1.358265e-002	1.562997e-002	1.233349e-003
2.988298033671993e-007	1.573495e-003	1.384520e-002	1.562076e-002	1.233349e-003
3.037126158671995e-007	1.398223e-003	1.411333e-002	1.561156e-002	1.233349e-003
3.101300265814853e-007	1.196793e-003	1.447444e-002	1.559950e-002	1.233349e-003
3.165474372957712e-007	1.017121e-003	1.484792e-002	1.558748e-002	1.233349e-003
3.229648480100571e-007	8.592079e-004	1.523376e-002	1.557549e-002	1.233349e-003
3.293822587243429e-007	7.230525e-004	1.563196e-002	1.556353e-002	1.233349e-003
3.357996694386288e-007	6.086551e-004	1.604252e-002	1.555161e-002	1.233349e-003
3.422170801529147e-007	5.160158e-004	1.646544e-002	1.553972e-002	1.233349e-003
3.486344908672005e-007	4.451345e-004	1.690073e-002	1.552786e-002	1.233349e-003
3.582606069386294e-007	3.564681e-004	1.757518e-002	1.551014e-002	1.233349e-003
3.678867230100582e-007	2.799678e-004	1.829159e-002	1.549251e-002	1.233349e-003
3.775128390814870e-007	2.156337e-004	1.904997e-002	1.547496e-002	1.233349e-003
3.871389551529158e-007	1.634657e-004	1.985030e-002	1.545749e-002	1.233349e-003
3.967650712243446e-007	1.234638e-004	2.069260e-002	1.544011e-002	1.233349e-003
4.063911872957734e-007	9.562798e-005	2.157686e-002	1.542281e-002	1.233349e-003
4.160173033672022e-007	7.995832e-005	2.250308e-002	1.540560e-002	1.233349e-003
4.264804730100596e-007	6.302396e-005	2.355636e-002	1.538699e-002	1.233349e-003
4.369436426529170e-007	4.851594e-005	2.470575e-002	1.536850e-002	1.233349e-003
4.474068122957744e-007	3.643425e-005	2.595125e-002	1.535011e-002	1.233349e-003
4.578699819386318e-007	2.677889e-005	2.729285e-002	1.533182e-002	1.233349e-003
4.683331515814891e-007	1.954987e-005	2.873056e-002	1.531365e-002	1.233349e-003
4.787963212243465e-007	1.474719e-005	3.026438e-002	1.529558e-002	1.233349e-003
4.892594908672039e-007	1.237083e-005	3.189430e-002	1.527762e-002	1.233349e-003
4.960954283672041e-007	1.049180e-005	3.303315e-002	1.526595e-002	1.233349e-003
5.029313658672042e-007	8.824068e-006	3.426286e-002	1.525432e-002	1.233349e-003
5.097673033672044e-007	7.367649e-006	3.558345e-002	1.524272e-002	1.233349e-003
5.166032408672046e-007	6.122540e-006	3.699492e-002	1.523117e-002	1.233349e-003
5.234391783672047e-007	5.088739e-006	3.849725e-002	1.521965e-002	1.233349e-003
5.302751158672049e-007	4.266248e-006	4.009046e-002	1.520818e-002	1.233349e-003
5.371110533672051e-007	3.655067e-006	4.177455e-002	1.519674e-002	1.233349e-003
5.417148480100623e-007	3.260941e-006	4.298040e-002	1.518906e-002	1.233349e-003
5.463186426529196e-007	2.900711e-006	4.427542e-002	1.518138e-002	1.233349e-003
5.509224372957769e-007	2.574379e-006	4.565958e-002	1.517370e-002	1.233349e-003
5.555262319386340e-007	2.281943e-006	4.713290e-002	1.516602e-002	1.233349e-003
5.601300265814913e-007	2.023405e-006	4.869538e-002	1.515835e-002	1.233349e-003
5.647338212243486e-007	1.798763e-006	5.034701e-002	1.515068e-002	1.233349e-003
5.693376158672059e-007	1.608018e-006	5.208780e-002	1.514301e-002	1.233349e-003
5.725463212243488e-007	1.483505e-006	5.337356e-002	1.513767e-002	1.233349e-003
5.757550265814917e-007	1.367128e-006	5.475130e-002	1.513230e-002	1.233349e-003
5.789637319386346e-007	1.258888e-006	5.622102e-002	1.512691e-002	1.233349e-003
5.821724372957776e-007	1.158785e-006	5.778272e-002	1.512150e-002	1.233349e-003
5.853811426529206e-007	1.066818e-006	5.943640e-002	1.511608e-002	1.233349e-003
5.885898480100635e-007	9.829882e-007	6.118205e-002	1.511063e-002	1.233349e-003
5.917985533672064e-007	9.072945e-007	6.301969e-002	1.510516e-002	1.233349e-003
5.941702051529208e-007	8.545095e-007	6.445666e-002	1.510110e-002	1.233349e-003
5.965418569386350e-007	8.044174e-007	6.599970e-002	1.509699e-002	1.233349e-003
5.989135087243494e-007	7.570183e-007	6.764880e-002	1.509284e-002	1.233349e-003
6.012851605100638e-007	7.123120e-007	6.940398e-002	1.508865e-002	1.233349e-003
6.036568122957782e-007	6.702987e-007	7.126522e-002	1.508442e-002	1.233349e-003
6.060284640814924e-007	6.309783e-007	7.323253e-002	1.508014e-002	1.233349e-003
6.084001158672068e-007	5.943509e-007	7.530591e-002	1.507582e-002	1.233349e-003
6.113298033672069e-007	5.516001e-007	7.812118e-002	1.507036e-002	1.233349e-003
6.142594908672069e-007	5.119243e-007	8.121373e-002	1.506475e-002	1.233349e-003
6.171891783672070e-007	4.751023e-007	8.463260e-002	1.505896e-002	1.233349e-003
6.201188658672071e-007	4.409289e-007	8.843829e-002	1.505296e-002	1.233349e-003
6.230485533672072e-007	4.092135e-007	9.270549e-002	1.504667e-002	1.233349e-003
6.259782408672072e-007	3.797794e-007	9.752570e-002	1.504004e-002	1.233349e-003
6.279313658672073e-007	3.613424e-007	1.011001e-001	1.503538e-002	1.233349e-003
6.298844908672073e-007	3.438006e-007	1.050060e-001	1.503051e-002	1.233349e-003
6.328141783672074e-007	3.190715e-007	1.115752e-001	1.502275e-002	1.233349e-003
6.357438658672075e-007	2.961211e-007	1.191212e-001	1.501437e-002	1.233349e-003
6.369994462243503e-007	2.868197e-007	1.226814e-001	1.501056e-002	1.233349e-003
6.382550265814932e-007	2.777896e-007	1.264607e-001	1.500666e-002	1.233349e-003
6.395106069386361e-007	2.690308e-007	1.304593e-001	1.500268e-002	1.233349e-003
6.407661872957791e-007	2.605433e-007	1.346771e-001	1.499861e-002	1.233349e-003
6.420217676529219e-007	2.523270e-007	1.391140e-001	1.499446e-002	1.233349e-003
6.432773480100648e-007	2.443820e-007	1.437701e-001	1.499022e-002	1.233349e-003
6.445329283672077e-007	2.367084e-007	1.486455e-001	1.498590e-002	1.233349e-003
6.474626158672078e-007	2.196823e-007	1.608120e-001	1.497588e-002	1.233349e-003
6.503923033672078e-007	2.038809e-007	1.739718e-001	1.496604e-002	1.233349e-003
6.526244462243507e-007	1.926880e-007	1.846800e-001	1.495886e-002	1.233349e-003
6.548565890814936e-007	1.820377e-007	1.956720e-001	1.495192e-002	1.233349e-003
6.570887319386365e-007	1.719299e-007	2.069478e-001	1.494522e-002	1.233349e-003
6.593208747957795e-007	1.623645e-007	2.185074e-001	1.493877e-002	1.233349e-003
6.615530176529224e-007	1.533416e-007	2.303508e-001	1.493257e-002	1.233349e-003
6.637851605100653e-007	1.448612e-007	2.424780e-001	1.492661e-002	1.233349e-003
6.660173033672082e-007	1.369233e-007	2.548890e-001	1.492089e-002	1.233349e-003
6.717371694386369e-007	1.190454e-007	2.874061e-001	1.490691e-002	1.233349e-003
6.774570355100656e-007	1.029573e-007	3.206466e-001	1.489272e-002	1.233349e-003
6.831769015814943e-007	8.865920e-008	3.546106e-001	1.487830e-002	1.233349e-003
6.888967676529231e-007	7.615094e-008	3.892980e-001	1.486366e-002	1.233349e-003
